Time [s],Channel 0,Channel 1,Channel 2
0.000000000,1,1,1
0.003789500,1,1,0
0.003790500,1,0,0
0.003791750,1,1,0
0.003797750,1,0,0
0.003799000,1,1,0
0.003804750,1,0,0
0.003805500,0,0,0
0.003806000,0,1,0
0.003824500,0,0,0
0.003825000,1,0,0
0.003825750,1,1,0
0.003831500,1,0,0
0.003832250,0,0,0
0.003832750,0,1,0
0.003838750,0,0,0
0.003840000,0,1,0
0.003845750,0,0,0
0.003847000,0,1,0
0.003853000,0,0,0
0.003853500,1,0,0
0.003854250,1,1,0
0.003861500,1,1,1
0.010795500,1,1,0
0.010796500,1,0,0
0.010797000,0,0,0
0.010797500,0,1,0
0.010803500,0,0,0
0.010804250,1,0,0
0.010804750,1,1,0
0.010810750,1,0,0
0.010811250,0,0,0
0.010811750,0,1,0
0.010830250,0,0,0
0.010831500,0,1,0
0.010837250,0,0,0
0.010838500,0,1,0
0.010844500,0,0,0
0.010845750,0,1,0
0.010851500,0,0,0
0.010852250,1,0,0
0.010852750,1,1,0
0.010858750,1,0,0
0.010859250,0,0,0
0.010860000,0,1,0
0.010866250,1,1,0
0.010884250,0,0,0
0.010890250,0,1,0
0.010896500,0,0,0
0.010902500,0,1,0
0.010909000,0,0,0
0.010915000,0,1,0
0.010921500,0,0,0
0.010927250,0,1,0
0.010933750,0,0,0
0.010939750,0,1,0
0.010946250,0,0,0
0.010952000,0,1,0
0.010958500,0,0,0
0.010964500,0,1,0
0.010971000,0,0,0
0.010977000,0,1,0
0.010984500,0,0,0
0.010990500,0,1,0
0.010997000,0,0,0
0.011003000,0,1,0
0.011009250,0,0,0
0.011015250,0,1,0
0.011021750,0,0,0
0.011027750,0,1,0
0.011034250,0,0,0
0.011040000,0,1,0
0.011046500,0,0,0
0.011052500,0,1,0
0.011059000,0,0,0
0.011064750,0,1,0
0.011071250,0,0,0
0.011077250,0,1,0
0.011085000,0,0,0
0.011091000,0,1,0
0.011097250,0,0,0
0.011103250,0,1,0
0.011109750,0,0,0
0.011115750,0,1,0
0.011122000,0,0,0
0.011128000,0,1,0
0.011134500,0,0,0
0.011140500,0,1,0
0.011146750,0,0,0
0.011152750,0,1,0
0.011159250,0,0,0
0.011165250,0,1,0
0.011171500,0,0,0
0.011177500,0,1,0
0.011185250,0,0,0
0.011185500,1,0,0
0.011191250,1,1,0
0.011197750,0,0,0
0.011203750,0,1,0
0.011210000,0,0,0
0.011216000,0,1,0
0.011222500,0,0,0
0.011228500,0,1,0
0.011234750,0,0,0
0.011240750,0,1,0
0.011247250,0,0,0
0.011253250,0,1,0
0.011259500,0,0,0
0.011265500,0,1,0
0.011272000,0,0,0
0.011278000,0,1,0
0.011285500,0,0,0
0.011291500,0,1,0
0.011298000,0,0,0
0.011304000,0,1,0
0.011310250,0,0,0
0.011316250,0,1,0
0.011322750,0,0,0
0.011328750,0,1,0
0.011335000,0,0,0
0.011341000,0,1,0
0.011347500,0,0,0
0.011353500,0,1,0
0.011360000,0,0,0
0.011365750,0,1,0
0.011372250,0,0,0
0.011378250,0,1,0
0.011385500,0,1,1
0.011385750,1,1,1
0.017799500,1,1,0
0.017800500,1,0,0
0.017801500,1,1,0
0.017807500,1,0,0
0.017808750,1,1,0
0.017814750,1,0,0
0.017815250,0,0,0
0.017815750,0,1,0
0.017834250,0,0,0
0.017835500,0,1,0
0.017841500,0,0,0
0.017842750,0,1,0
0.017848500,0,0,0
0.017849750,0,1,0
0.017855750,0,0,0
0.017856750,0,1,0
0.017862750,0,0,0
0.017864000,0,1,0
0.017870250,1,1,0
0.017871500,1,1,1
0.023804250,1,1,0
0.023805250,1,0,0
0.023805750,0,0,0
0.023806500,0,1,0
0.023812250,0,0,0
0.023813500,0,1,0
0.023819500,0,0,0
0.023820750,0,1,0
0.023839000,0,0,0
0.023840250,0,1,0
0.023846250,0,0,0
0.023847250,0,1,0
0.023853250,0,0,0
0.023854500,0,1,0
0.023860250,0,0,0
0.023861000,1,0,0
0.023861500,1,1,0
0.023867500,1,0,0
0.023868000,0,0,0
0.023868750,0,1,0
0.023875000,1,1,0
0.023876250,1,1,1
0.029807500,1,1,0
0.029808500,1,0,0
0.029809250,0,0,0
0.029809750,0,1,0
0.029815750,0,0,0
0.029816750,0,1,0
0.029822750,0,0,0
0.029824000,0,1,0
0.029842250,0,0,0
0.029843500,0,1,0
0.029849500,0,0,0
0.029850750,0,1,0
0.029856500,0,0,0
0.029857750,0,1,0
0.029863750,0,0,0
0.029864250,1,0,0
0.029865000,1,1,0
0.029870750,1,0,0
0.029872000,1,1,0
0.029879750,1,0,0
0.029880250,0,0,0
0.029881000,0,1,0
0.029886750,0,0,0
0.029888000,0,1,0
0.029894000,0,0,0
0.029895000,0,1,0
0.029901000,0,0,0
0.029902250,0,1,0
0.029908000,0,0,0
0.029909250,0,1,0
0.029915250,0,0,0
0.029916500,0,1,0
0.029922250,0,0,0
0.029923000,1,0,0
0.029923500,1,1,0
0.029929500,1,0,0
0.029930000,0,0,0
0.029930750,0,1,0
0.029937000,1,1,0
0.029938000,1,1,1
0.035810500,1,1,0
0.035811500,1,0,0
0.035812500,1,1,0
0.035818500,1,0,0
0.035819250,0,0,0
0.035819750,0,1,0
0.035825500,0,0,0
0.035826750,0,1,0
0.035845250,0,0,0
0.035846500,0,1,0
0.035852500,0,0,0
0.035853500,0,1,0
0.035859500,0,0,0
0.035860750,0,1,0
0.035866500,0,0,0
0.035867250,1,0,0
0.035867750,1,1,0
0.035873750,1,0,0
0.035875000,1,1,0
0.035882500,1,0,0
0.035883250,0,0,0
0.035883750,0,1,0
0.035889750,0,0,0
0.035891000,0,1,0
0.035896750,0,0,0
0.035898000,0,1,0
0.035904000,0,0,0
0.035905000,0,1,0
0.035911000,0,0,0
0.035912250,0,1,0
0.035918000,0,0,0
0.035919250,0,1,0
0.035925250,0,0,0
0.035926500,0,1,0
0.035932250,0,0,0
0.035933500,0,1,0
0.035940000,1,1,0
0.035940750,1,1,1
0.041815000,1,1,0
0.041816000,1,0,0
0.041817250,1,1,0
0.041823250,1,0,0
0.041824500,1,1,0
0.041830250,1,0,0
0.041831000,0,0,0
0.041831500,0,1,0
0.041850000,0,0,0
0.041850500,1,0,0
0.041851250,1,1,0
0.041857000,1,0,0
0.041857750,0,0,0
0.041858250,0,1,0
0.041864250,0,0,0
0.041865500,0,1,0
0.041871250,0,0,0
0.041872500,0,1,0
0.041878500,0,0,0
0.041879000,1,0,0
0.041879750,1,1,0
0.041887000,1,1,1
0.048818750,1,1,0
0.048819750,1,0,0
0.048820500,0,0,0
0.048821000,0,1,0
0.048827000,0,0,0
0.048827500,1,0,0
0.048828000,1,1,0
0.048834000,1,0,0
0.048834750,0,0,0
0.048835250,0,1,0
0.048853750,0,0,0
0.048854750,0,1,0
0.048860750,0,0,0
0.048862000,0,1,0
0.048867750,0,0,0
0.048869000,0,1,0
0.048875000,0,0,0
0.048875750,1,0,0
0.048876250,1,1,0
0.048882000,1,0,0
0.048882750,0,0,0
0.048883250,0,1,0
0.048889750,1,1,0
0.048907750,0,0,0
0.048913750,0,1,0
0.048920000,0,0,0
0.048926000,0,1,0
0.048932500,0,0,0
0.048938500,0,1,0
0.048944750,0,0,0
0.048950750,0,1,0
0.048957250,0,0,0
0.048963250,0,1,0
0.048969500,0,0,0
0.048975500,0,1,0
0.048982000,0,0,0
0.048988000,0,1,0
0.048994250,0,0,0
0.049000250,0,1,0
0.049008000,0,0,0
0.049014000,0,1,0
0.049020500,0,0,0
0.049026500,0,1,0
0.049032750,0,0,0
0.049038750,0,1,0
0.049045250,0,0,0
0.049051250,0,1,0
0.049057500,0,0,0
0.049063500,0,1,0
0.049070000,0,0,0
0.049076000,0,1,0
0.049082250,0,0,0
0.049088250,0,1,0
0.049094750,0,0,0
0.049100750,0,1,0
0.049108500,0,0,0
0.049114250,0,1,0
0.049120750,0,0,0
0.049126750,0,1,0
0.049133250,0,0,0
0.049139000,0,1,0
0.049145500,0,0,0
0.049151500,0,1,0
0.049158000,0,0,0
0.049164000,0,1,0
0.049170250,0,0,0
0.049176250,0,1,0
0.049182750,0,0,0
0.049188750,0,1,0
0.049195000,0,0,0
0.049201000,0,1,0
0.049208750,0,0,0
0.049209000,1,0,0
0.049214750,1,1,0
0.049221250,0,0,0
0.049227250,0,1,0
0.049233500,0,0,0
0.049239500,0,1,0
0.049246000,0,0,0
0.049252000,0,1,0
0.049258250,0,0,0
0.049264250,0,1,0
0.049270750,0,0,0
0.049276750,0,1,0
0.049283000,0,0,0
0.049289000,0,1,0
0.049295500,0,0,0
0.049301500,0,1,0
0.049309250,0,0,0
0.049315000,0,1,0
0.049321500,0,0,0
0.049327500,0,1,0
0.049334000,0,0,0
0.049340000,0,1,0
0.049346250,0,0,0
0.049352250,0,1,0
0.049358750,0,0,0
0.049364750,0,1,0
0.049371000,0,0,0
0.049377000,0,1,0
0.049383500,0,0,0
0.049389500,0,1,0
0.049395750,0,0,0
0.049401750,0,1,0
0.049409000,0,1,1
0.049409250,1,1,1
0.055821250,1,1,0
0.055822250,1,0,0
0.055823500,1,1,0
0.055829250,1,0,0
0.055830500,1,1,0
0.055836500,1,0,0
0.055837000,0,0,0
0.055837750,0,1,0
0.055856000,0,0,0
0.055857250,0,1,0
0.055863250,0,0,0
0.055864500,0,1,0
0.055870250,0,0,0
0.055871500,0,1,0
0.055877500,0,0,0
0.055878750,0,1,0
0.055884500,0,0,0
0.055885750,0,1,0
0.055892250,1,1,0
0.055893250,1,1,1
0.061824250,1,1,0
0.061825250,1,0,0
0.061825750,0,0,0
0.061826500,0,1,0
0.061832250,0,0,0
0.061833500,0,1,0
0.061839500,0,0,0
0.061840750,0,1,0
0.061859000,0,0,0
0.061860250,0,1,0
0.061866250,0,0,0
0.061867500,0,1,0
0.061873250,0,0,0
0.061874500,0,1,0
0.061880500,0,0,0
0.061881000,1,0,0
0.061881500,1,1,0
0.061887500,1,0,0
0.061888250,0,0,0
0.061888750,0,1,0
0.061895250,1,1,0
0.061896250,1,1,1
0.067827750,1,1,0
0.067828750,1,0,0
0.067829500,0,0,0
0.067830000,0,1,0
0.067836000,0,0,0
0.067837000,0,1,0
0.067843000,0,0,0
0.067844250,0,1,0
0.067862500,0,0,0
0.067863750,0,1,0
0.067869750,0,0,0
0.067871000,0,1,0
0.067876750,0,0,0
0.067878000,0,1,0
0.067884000,0,0,0
0.067884500,1,0,0
0.067885250,1,1,0
0.067891000,1,0,0
0.067892250,1,1,0
0.067899750,1,0,0
0.067900500,0,0,0
0.067901000,0,1,0
0.067907000,0,0,0
0.067908250,0,1,0
0.067914000,0,0,0
0.067915250,0,1,0
0.067921250,0,0,0
0.067922500,0,1,0
0.067928250,0,0,0
0.067929500,0,1,0
0.067935500,0,0,0
0.067936750,0,1,0
0.067942500,0,0,0
0.067943250,1,0,0
0.067943750,1,1,0
0.067949750,1,0,0
0.067950250,0,0,0
0.067950750,0,1,0
0.067957250,1,1,0
0.067958250,1,1,1
0.073831250,1,1,0
0.073832250,1,0,0
0.073833500,1,1,0
0.073839500,1,0,0
0.073840000,0,0,0
0.073840750,0,1,0
0.073846500,0,0,0
0.073847750,0,1,0
0.073866250,0,0,0
0.073867500,0,1,0
0.073873250,0,0,0
0.073874500,0,1,0
0.073880500,0,0,0
0.073881500,0,1,0
0.073887500,0,0,0
0.073888250,1,0,0
0.073888750,1,1,0
0.073894750,1,0,0
0.073895750,1,1,0
0.073903500,1,0,0
0.073904000,0,0,0
0.073904750,0,1,0
0.073910500,0,0,0
0.073911750,0,1,0
0.073917750,0,0,0
0.073919000,0,1,0
0.073924750,0,0,0
0.073926000,0,1,0
0.073932000,0,0,0
0.073933000,0,1,0
0.073939000,0,0,0
0.073940250,0,1,0
0.073946000,0,0,0
0.073947250,0,1,0
0.073953250,0,0,0
0.073954500,0,1,0
0.073960750,1,1,0
0.073961750,1,1,1
0.079837000,1,1,0
0.079838000,1,0,0
0.079839250,1,1,0
0.079845250,1,0,0
0.079846500,1,1,0
0.079852250,1,0,0
0.079853000,0,0,0
0.079853500,0,1,0
0.079872000,0,0,0
0.079872500,1,0,0
0.079873250,1,1,0
0.079879000,1,0,0
0.079879750,0,0,0
0.079880250,0,1,0
0.079886250,0,0,0
0.079887500,0,1,0
0.079893250,0,0,0
0.079894500,0,1,0
0.079900500,0,0,0
0.079901000,1,0,0
0.079901750,1,1,0
0.079909000,1,1,1
0.086841500,1,1,0
0.086842500,1,0,0
0.086843000,0,0,0
0.086843750,0,1,0
0.086849500,0,0,0
0.086850250,1,0,0
0.086850750,1,1,0
0.086856750,1,0,0
0.086857250,0,0,0
0.086858000,0,1,0
0.086876250,0,0,0
0.086877500,0,1,0
0.086883500,0,0,0
0.086884500,0,1,0
0.086890500,0,0,0
0.086891750,0,1,0
0.086897750,0,0,0
0.086898250,1,0,0
0.086898750,1,1,0
0.086904750,1,0,0
0.086905500,0,0,0
0.086906000,0,1,0
0.086912500,1,1,0
0.086930250,0,0,0
0.086936250,0,1,0
0.086942750,0,0,0
0.086948750,0,1,0
0.086955000,0,0,0
0.086961000,0,1,0
0.086967500,0,0,0
0.086973500,0,1,0
0.086979750,0,0,0
0.086985750,0,1,0
0.086992250,0,0,0
0.086998250,0,1,0
0.087004750,0,0,0
0.087010500,0,1,0
0.087017000,0,0,0
0.087023000,0,1,0
0.087030750,0,0,0
0.087036750,0,1,0
0.087043000,0,0,0
0.087049000,0,1,0
0.087055500,0,0,0
0.087061500,0,1,0
0.087067750,0,0,0
0.087073750,0,1,0
0.087080250,0,0,0
0.087086250,0,1,0
0.087092500,0,0,0
0.087098500,0,1,0
0.087105000,0,0,0
0.087111000,0,1,0
0.087117500,0,0,0
0.087123250,0,1,0
0.087131000,0,0,0
0.087137000,0,1,0
0.087143500,0,0,0
0.087149500,0,1,0
0.087155750,0,0,0
0.087161750,0,1,0
0.087168250,0,0,0
0.087174250,0,1,0
0.087180500,0,0,0
0.087186500,0,1,0
0.087193000,0,0,0
0.087199000,0,1,0
0.087205250,0,0,0
0.087211250,0,1,0
0.087217750,0,0,0
0.087223750,0,1,0
0.087231500,1,0,0
0.087237500,1,1,0
0.087243750,0,0,0
0.087249750,0,1,0
0.087256250,0,0,0
0.087262250,0,1,0
0.087268500,0,0,0
0.087274500,0,1,0
0.087281000,0,0,0
0.087287000,0,1,0
0.087293250,0,0,0
0.087299250,0,1,0
0.087305750,0,0,0
0.087311750,0,1,0
0.087318250,0,0,0
0.087324000,0,1,0
0.087331750,0,0,0
0.087337750,0,1,0
0.087344250,0,0,0
0.087350250,0,1,0
0.087356500,0,0,0
0.087362500,0,1,0
0.087369000,0,0,0
0.087375000,0,1,0
0.087381250,0,0,0
0.087387250,0,1,0
0.087393750,0,0,0
0.087399750,0,1,0
0.087406000,0,0,0
0.087412000,0,1,0
0.087418500,0,0,0
0.087424500,0,1,0
0.087431750,0,1,1
0.087432000,1,1,1
0.093846500,1,1,0
0.093847500,1,0,0
0.093848750,1,1,0
0.093854500,1,0,0
0.093855750,1,1,0
0.093861750,1,0,0
0.093862500,0,0,0
0.093863000,0,1,0
0.093881500,0,0,0
0.093882750,0,1,0
0.093888500,0,0,0
0.093889750,0,1,0
0.093895750,0,0,0
0.093896750,0,1,0
0.093902750,0,0,0
0.093904000,0,1,0
0.093909750,0,0,0
0.093911000,0,1,0
0.093917500,1,1,0
0.093918500,1,1,1
0.099850500,1,1,0
0.099851500,1,0,0
0.099852000,0,0,0
0.099852500,0,1,0
0.099858500,0,0,0
0.099859750,0,1,0
0.099865500,0,0,0
0.099866750,0,1,0
0.099884500,0,0,0
0.099885750,0,1,0
0.099891750,0,0,0
0.099893000,0,1,0
0.099898750,0,0,0
0.099900000,0,1,0
0.099906000,0,0,0
0.099906500,1,0,0
0.099907250,1,1,0
0.099913000,1,0,0
0.099913750,0,0,0
0.099914250,0,1,0
0.099920750,1,1,0
0.099921750,1,1,1
0.105852500,1,1,0
0.105853500,1,0,0
0.105854250,0,0,0
0.105854750,0,1,0
0.105860750,0,0,0
0.105861750,0,1,0
0.105867750,0,0,0
0.105869000,0,1,0
0.105886750,0,0,0
0.105888000,0,1,0
0.105894000,0,0,0
0.105895250,0,1,0
0.105901000,0,0,0
0.105902250,0,1,0
0.105908250,0,0,0
0.105908750,1,0,0
0.105909500,1,1,0
0.105915250,1,0,0
0.105916500,1,1,0
0.105924000,1,0,0
0.105924750,0,0,0
0.105925250,0,1,0
0.105931250,0,0,0
0.105932500,0,1,0
0.105938250,0,0,0
0.105939500,0,1,0
0.105945500,0,0,0
0.105946750,0,1,0
0.105952500,0,0,0
0.105953750,0,1,0
0.105959750,0,0,0
0.105960750,0,1,0
0.105966750,0,0,0
0.105967500,1,0,0
0.105968000,1,1,0
0.105974000,1,0,0
0.105974500,0,0,0
0.105975000,0,1,0
0.105981500,1,1,0
0.105982500,1,1,1
0.111855500,1,1,0
0.111856500,1,0,0
0.111857750,1,1,0
0.111863500,1,0,0
0.111864250,0,0,0
0.111864750,0,1,0
0.111870750,0,0,0
0.111871750,0,1,0
0.111889750,0,0,0
0.111891000,0,1,0
0.111896750,0,0,0
0.111898000,0,1,0
0.111904000,0,0,0
0.111905250,0,1,0
0.111911000,0,0,0
0.111911750,1,0,0
0.111912250,1,1,0
0.111918250,1,0,0
0.111919500,1,1,0
0.111927000,1,0,0
0.111927750,0,0,0
0.111928250,0,1,0
0.111934000,0,0,0
0.111935250,0,1,0
0.111941250,0,0,0
0.111942500,0,1,0
0.111948250,0,0,0
0.111949500,0,1,0
0.111955500,0,0,0
0.111956750,0,1,0
0.111962500,0,0,0
0.111963750,0,1,0
0.111969750,0,0,0
0.111970750,0,1,0
0.111976750,0,0,0
0.111978000,0,1,0
0.111984500,1,1,0
0.111985250,1,1,1
0.117859250,1,1,0
0.117860000,1,0,0
0.117861250,1,1,0
0.117867250,1,0,0
0.117868500,1,1,0
0.117874500,1,0,0
0.117875000,0,0,0
0.117875500,0,1,0
0.117893500,0,0,0
0.117894000,1,0,0
0.117894750,1,1,0
0.117900500,1,0,0
0.117901250,0,0,0
0.117901750,0,1,0
0.117907750,0,0,0
0.117909000,0,1,0
0.117914750,0,0,0
0.117916000,0,1,0
0.117922000,0,0,0
0.117922500,1,0,0
0.117923250,1,1,0
0.117930500,1,1,1
0.152895750,1,1,0
0.152896750,1,0,0
0.152897250,0,0,0
0.152898000,0,1,0
0.152903750,0,0,0
0.152904500,1,0,0
0.152905000,1,1,0
0.152911000,1,0,0
0.152911500,0,0,0
0.152912250,0,1,0
0.152930500,0,0,0
0.152931750,0,1,0
0.152937750,0,0,0
0.152939000,0,1,0
0.152944750,0,0,0
0.152946000,0,1,0
0.152952000,0,0,0
0.152952500,1,0,0
0.152953000,1,1,0
0.152959000,1,0,0
0.152959750,0,0,0
0.152960250,0,1,0
0.152966750,1,1,0
0.152984500,0,0,0
0.152990500,0,1,0
0.152997000,0,0,0
0.153003000,0,1,0
0.153009250,0,0,0
0.153015250,0,1,0
0.153021750,0,0,0
0.153027750,0,1,0
0.153034000,0,0,0
0.153040000,0,1,0
0.153046500,0,0,0
0.153052500,0,1,0
0.153059000,0,0,0
0.153064750,0,1,0
0.153071250,0,0,0
0.153077250,0,1,0
0.153085000,0,0,0
0.153091000,0,1,0
0.153097250,0,0,0
0.153103250,0,1,0
0.153109750,0,0,0
0.153115750,0,1,0
0.153122250,0,0,0
0.153128250,0,1,0
0.153134500,0,0,0
0.153140500,0,1,0
0.153147000,0,0,0
0.153153000,0,1,0
0.153159250,0,0,0
0.153165250,0,1,0
0.153171750,0,0,0
0.153177750,0,1,0
0.153185500,0,0,0
0.153191250,0,1,0
0.153197750,0,0,0
0.153203750,0,1,0
0.153210250,0,0,0
0.153216250,0,1,0
0.153222500,0,0,0
0.153228500,0,1,0
0.153235000,0,0,0
0.153241000,0,1,0
0.153247250,0,0,0
0.153253250,0,1,0
0.153259750,0,0,0
0.153265750,0,1,0
0.153272000,0,0,0
0.153278000,0,1,0
0.153285750,0,0,0
0.153286000,1,0,0
0.153291750,1,1,0
0.153298250,0,0,0
0.153304250,0,1,0
0.153310500,0,0,0
0.153316500,0,1,0
0.153323000,0,0,0
0.153329000,0,1,0
0.153335500,0,0,0
0.153341250,0,1,0
0.153347750,0,0,0
0.153353750,0,1,0
0.153360250,0,0,0
0.153366250,0,1,0
0.153372500,0,0,0
0.153378500,0,1,0
0.153386250,0,0,0
0.153392250,0,1,0
0.153398750,0,0,0
0.153404500,0,1,0
0.153411000,0,0,0
0.153417000,0,1,0
0.153423500,0,0,0
0.153429500,0,1,0
0.153435750,0,0,0
0.153441750,0,1,0
0.153448250,0,0,0
0.153454250,0,1,0
0.153460500,0,0,0
0.153466500,0,1,0
0.153473000,0,0,0
0.153479000,0,1,0
0.153486250,0,1,1
0.153486500,1,1,1
0.159903250,1,1,0
0.159904250,1,0,0
0.159905500,1,1,0
0.159911250,1,0,0
0.159912500,1,1,0
0.159918500,1,0,0
0.159919000,0,0,0
0.159919750,0,1,0
0.159938250,0,0,0
0.159939250,0,1,0
0.159945250,0,0,0
0.159946500,0,1,0
0.159952250,0,0,0
0.159953500,0,1,0
0.159959500,0,0,0
0.159960750,0,1,0
0.159966500,0,0,0
0.159967750,0,1,0
0.159974250,1,1,0
0.159975250,1,1,1
0.165907750,1,1,0
0.165908750,1,0,0
0.165909500,0,0,0
0.165910000,0,1,0
0.165916000,0,0,0
0.165917250,0,1,0
0.165923000,0,0,0
0.165924250,0,1,0
0.165942750,0,0,0
0.165944000,0,1,0
0.165949750,0,0,0
0.165951000,0,1,0
0.165957000,0,0,0
0.165958250,0,1,0
0.165964000,0,0,0
0.165964750,1,0,0
0.165965250,1,1,0
0.165971250,1,0,0
0.165971750,0,0,0
0.165972500,0,1,0
0.165978750,1,1,0
0.165979750,1,1,1
0.171913500,1,1,0
0.171914500,1,0,0
0.171915000,0,0,0
0.171915750,0,1,0
0.171921500,0,0,0
0.171922750,0,1,0
0.171928750,0,0,0
0.171930000,0,1,0
0.171948250,0,0,0
0.171949500,0,1,0
0.171955500,0,0,0
0.171956750,0,1,0
0.171962500,0,0,0
0.171963750,0,1,0
0.171969750,0,0,0
0.171970250,1,0,0
0.171971000,1,1,0
0.171976750,1,0,0
0.171978000,1,1,0
0.171985750,1,0,0
0.171986250,0,0,0
0.171987000,0,1,0
0.171992750,0,0,0
0.171994000,0,1,0
0.172000000,0,0,0
0.172001000,0,1,0
0.172007000,0,0,0
0.172008250,0,1,0
0.172014000,0,0,0
0.172015250,0,1,0
0.172021250,0,0,0
0.172022500,0,1,0
0.172028250,0,0,0
0.172029000,1,0,0
0.172029500,1,1,0
0.172035500,1,0,0
0.172036000,0,0,0
0.172036750,0,1,0
0.172043000,1,1,0
0.172044000,1,1,1
0.177919500,1,1,0
0.177920500,1,0,0
0.177921750,1,1,0
0.177927750,1,0,0
0.177928250,0,0,0
0.177929000,0,1,0
0.177934750,0,0,0
0.177936000,0,1,0
0.177954500,0,0,0
0.177955750,0,1,0
0.177961500,0,0,0
0.177962750,0,1,0
0.177968750,0,0,0
0.177970000,0,1,0
0.177975750,0,0,0
0.177976500,1,0,0
0.177977000,1,1,0
0.177983000,1,0,0
0.177984250,1,1,0
0.177991750,1,0,0
0.177992500,0,0,0
0.177993000,0,1,0
0.177999000,0,0,0
0.178000000,0,1,0
0.178006000,0,0,0
0.178007250,0,1,0
0.178013000,0,0,0
0.178014250,0,1,0
0.178020250,0,0,0
0.178021500,0,1,0
0.178027250,0,0,0
0.178028500,0,1,0
0.178034500,0,0,0
0.178035750,0,1,0
0.178041500,0,0,0
0.178042750,0,1,0
0.178049250,1,1,0
0.178050000,1,1,1
0.183925250,1,1,0
0.183926250,1,0,0
0.183927500,1,1,0
0.183933250,1,0,0
0.183934500,1,1,0
0.183940500,1,0,0
0.183941000,0,0,0
0.183941750,0,1,0
0.183960000,0,0,0
0.183960750,1,0,0
0.183961250,1,1,0
0.183967250,1,0,0
0.183967750,0,0,0
0.183968500,0,1,0
0.183974250,0,0,0
0.183975500,0,1,0
0.183981500,0,0,0
0.183982750,0,1,0
0.183988500,0,0,0
0.183989250,1,0,0
0.183989750,1,1,0
0.183997000,1,1,1
0.190932000,1,1,0
0.190933000,1,0,0
0.190933500,0,0,0
0.190934250,0,1,0
0.190940000,0,0,0
0.190940750,1,0,0
0.190941250,1,1,0
0.190947250,1,0,0
0.190947750,0,0,0
0.190948500,0,1,0
0.190966750,0,0,0
0.190968000,0,1,0
0.190973750,0,0,0
0.190975000,0,1,0
0.190981000,0,0,0
0.190982250,0,1,0
0.190988000,0,0,0
0.190988750,1,0,0
0.190989250,1,1,0
0.190995250,1,0,0
0.190995750,0,0,0
0.190996500,0,1,0
0.191002750,1,1,0
0.191020750,0,0,0
0.191026750,0,1,0
0.191033250,0,0,0
0.191039000,0,1,0
0.191045500,0,0,0
0.191051500,0,1,0
0.191058000,0,0,0
0.191063750,0,1,0
0.191070250,0,0,0
0.191076250,0,1,0
0.191082750,0,0,0
0.191088750,0,1,0
0.191095000,0,0,0
0.191101000,0,1,0
0.191107500,0,0,0
0.191113500,0,1,0
0.191121000,0,0,0
0.191127000,0,1,0
0.191133500,0,0,0
0.191139500,0,1,0
0.191146000,0,0,0
0.191152000,0,1,0
0.191158250,0,0,0
0.191164250,0,1,0
0.191170750,0,0,0
0.191176750,0,1,0
0.191183000,0,0,0
0.191189000,0,1,0
0.191195500,0,0,0
0.191201500,0,1,0
0.191207750,0,0,0
0.191213750,0,1,0
0.191221500,0,0,0
0.191227500,0,1,0
0.191234000,0,0,0
0.191240000,0,1,0
0.191246250,0,0,0
0.191252250,0,1,0
0.191258750,0,0,0
0.191264750,0,1,0
0.191271000,0,0,0
0.191277000,0,1,0
0.191283500,0,0,0
0.191289500,0,1,0
0.191295750,0,0,0
0.191301750,0,1,0
0.191308250,0,0,0
0.191314250,0,1,0
0.191322000,1,0,0
0.191328000,1,1,0
0.191334250,0,0,0
0.191340250,0,1,0
0.191346750,0,0,0
0.191352750,0,1,0
0.191359000,0,0,0
0.191365000,0,1,0
0.191371500,0,0,0
0.191377500,0,1,0
0.191383750,0,0,0
0.191389750,0,1,0
0.191396250,0,0,0
0.191402250,0,1,0
0.191408750,0,0,0
0.191414500,0,1,0
0.191422250,0,0,0
0.191428250,0,1,0
0.191434750,0,0,0
0.191440750,0,1,0
0.191447000,0,0,0
0.191453000,0,1,0
0.191459500,0,0,0
